time	V(out1)-V(out2)	I(V5)
0.000000000000000e+000	5.164425e-008	5.164424e-009
7.142856940843350e-011	5.164425e-008	5.164423e-009
1.428571388168670e-010	5.164424e-008	5.164422e-009
2.142857082253005e-010	5.164424e-008	5.164421e-009
2.857142776337340e-010	5.164424e-008	5.164421e-009
3.571428470421675e-010	5.164424e-008	5.164422e-009
4.285714164506010e-010	5.164425e-008	5.164423e-009
4.999999858590343e-010	5.164425e-008	5.164424e-009
9.999999717180685e-010	5.164425e-008	5.164424e-009
1.999999943436137e-009	5.164425e-008	5.164424e-009
3.999999886872274e-009	5.164425e-008	5.164424e-009
6.208764338825902e-009	5.164425e-008	5.164425e-009
9.213529909973363e-009	5.164425e-008	5.164424e-009
1.210673551767672e-008	5.164425e-008	5.164421e-009
1.343063876785615e-008	5.164425e-008	5.164425e-009
1.390023975474443e-008	5.164425e-008	5.164425e-009
1.412162190834587e-008	5.164425e-008	5.164426e-009
1.425984606694595e-008	5.164425e-008	5.164423e-009
1.433913648440150e-008	5.164425e-008	5.164420e-009
1.440193560765236e-008	5.164425e-008	5.164423e-009
1.447407653126084e-008	5.164425e-008	5.164428e-009
1.454313063032592e-008	5.164425e-008	5.164429e-009
1.464024086771961e-008	5.164425e-008	5.164427e-009
1.477294421616279e-008	5.164425e-008	5.164424e-009
1.496378406638407e-008	5.164425e-008	5.164428e-009
1.501945495357395e-008	5.164425e-008	5.164428e-009
1.523165606282490e-008	5.164425e-008	5.164425e-009
1.532790629278786e-008	5.164425e-008	5.164421e-009
1.542815471611057e-008	5.164425e-008	5.164424e-009
1.556869398072329e-008	5.164425e-008	5.164426e-009
1.574431908463448e-008	5.164425e-008	5.164425e-009
1.598113208469066e-008	5.164425e-008	5.164424e-009
1.631544942798494e-008	5.164425e-008	5.164424e-009
1.678857285188704e-008	5.164425e-008	5.164424e-009
1.749547850890291e-008	5.164425e-008	5.164425e-009
1.826108189128700e-008	5.164425e-008	5.164425e-009
1.887853214246857e-008	5.164425e-008	5.164361e-009
1.953701788142984e-008	5.164425e-008	5.162074e-009
2.013549149109875e-008	5.164425e-008	5.152475e-009
2.077627843339187e-008	5.164425e-008	5.127650e-009
2.142469587036403e-008	5.164425e-008	5.080833e-009
2.201077683262756e-008	5.164425e-008	5.008614e-009
2.250372565599332e-008	5.164425e-008	4.905873e-009
2.304883956655199e-008	5.164425e-008	4.718187e-009
2.354685670057929e-008	5.164425e-008	4.416427e-009
2.420308555665688e-008	5.164425e-008	3.638514e-009
2.499767424220834e-008	5.164425e-008	1.404303e-009
2.598835852758698e-008	5.164425e-008	-5.081006e-009
2.667906408697944e-008	5.164425e-008	-1.490011e-008
2.715616398352282e-008	5.164425e-008	-2.801172e-008
2.756416005865349e-008	5.164425e-008	-4.747661e-008
2.797915997371991e-008	5.164425e-008	-8.088345e-008
2.844689125264500e-008	5.164425e-008	-1.440547e-007
2.889092865361605e-008	5.164425e-008	-2.465259e-007
2.935065098426988e-008	5.164425e-008	-4.279743e-007
2.980367907049473e-008	5.164425e-008	-7.329850e-007
3.026474840091135e-008	5.164425e-008	-1.260464e-006
3.072810724380924e-008	5.164425e-008	-2.156913e-006
3.120179630603194e-008	5.164425e-008	-3.697688e-006
3.168615271927185e-008	5.164425e-008	-6.328579e-006
3.218898976828116e-008	5.164425e-008	-1.085009e-005
3.271704829992059e-008	5.164425e-008	-1.862178e-005
3.328623485313579e-008	5.164425e-008	-3.210076e-005
3.392130549931505e-008	5.164425e-008	-5.563924e-005
3.468507950334554e-008	5.164425e-008	-9.520270e-005
3.512871105297590e-008	5.164425e-008	-1.241591e-004
3.559223952650567e-008	5.164425e-008	-1.589181e-004
3.610217819965539e-008	5.164425e-008	-1.992663e-004
3.635118881092228e-008	5.164425e-008	-2.192159e-004
3.661288882144624e-008	5.164425e-008	-2.399529e-004
3.692854024615773e-008	5.164425e-008	-2.642691e-004
3.738778184975367e-008	5.164425e-008	-2.978941e-004
3.815050528456018e-008	5.164425e-008	-3.498096e-004
3.897138738047830e-008	5.164425e-008	-4.031937e-004
3.945685480820015e-008	5.164425e-008	-4.391634e-004
4.009403519257005e-008	5.164425e-008	-5.028599e-004
4.068313200830025e-008	5.164425e-008	-5.895376e-004
4.118809877921963e-008	5.164425e-008	-7.059623e-004
4.163845079060521e-008	5.164425e-008	-8.715211e-004
4.200416667751822e-008	5.164425e-008	-1.089214e-003
4.232401257892874e-008	5.164425e-008	-1.397508e-003
4.258848623114433e-008	5.164425e-008	-1.809636e-003
4.280339887819089e-008	5.164425e-008	-2.359541e-003
4.305788499900274e-008	5.164425e-008	-3.303039e-003
4.330106502657076e-008	5.164425e-008	-4.363524e-003
4.351647809512528e-008	5.164425e-008	-5.241193e-003
4.374708361305260e-008	5.164425e-008	-5.920576e-003
4.395886975035139e-008	5.164425e-008	-6.276729e-003
4.405026164583024e-008	5.164425e-008	-6.347893e-003
4.410699254475287e-008	5.164425e-008	-6.367099e-003
4.417983194934334e-008	5.164425e-008	-6.381397e-003
4.424631054538436e-008	5.164424e-008	-6.388582e-003
4.432955634180262e-008	5.164425e-008	-6.391531e-003
4.444350921164021e-008	5.164425e-008	-6.389040e-003
4.460716200009814e-008	5.164425e-008	-6.378885e-003
4.467142733711141e-008	5.164425e-008	-6.373266e-003
4.471724170871479e-008	5.164425e-008	-6.368610e-003
4.472924178019983e-008	5.164425e-008	-6.367316e-003
4.476981578118854e-008	5.164424e-008	-6.362788e-003
4.480222020215586e-008	5.164425e-008	-6.359023e-003
4.486702904409048e-008	5.164425e-008	-6.351122e-003
4.499664672795973e-008	5.164425e-008	-6.334234e-003
4.525588209569821e-008	5.164425e-008	-6.297753e-003
4.577435283117520e-008	5.164425e-008	-6.220271e-003
4.640681627657698e-008	5.164425e-008	-6.122973e-003
4.641662454014088e-008	5.164425e-008	-6.121453e-003
4.643624106726867e-008	5.164425e-008	-6.118414e-003
4.647547412152425e-008	5.164424e-008	-6.112338e-003
4.655394023003542e-008	5.164425e-008	-6.100200e-003
4.671087244705774e-008	5.164425e-008	-6.075993e-003
4.702473688110240e-008	5.164425e-008	-6.027743e-003
4.710320298961357e-008	5.164425e-008	-6.015709e-003
4.726013520663589e-008	5.164425e-008	-5.991654e-003
4.757399964068055e-008	5.164425e-008	-5.943625e-003
4.793796702687864e-008	5.164425e-008	-5.888368e-003
4.838790261512308e-008	5.164425e-008	-5.821014e-003
4.892020505567160e-008	5.164425e-008	-5.742820e-003
4.945901295683886e-008	5.164424e-008	-5.664545e-003
5.003089740718149e-008	5.164421e-008	-5.579099e-003
5.066710587835034e-008	5.164415e-008	-5.476793e-003
5.130225034712810e-008	5.164403e-008	-5.365408e-003
5.185805383860737e-008	5.164383e-008	-5.260188e-003
5.230330166941847e-008	5.164356e-008	-5.170200e-003
5.277325941021541e-008	5.164310e-008	-5.069672e-003
5.327253372605857e-008	5.164226e-008	-4.957483e-003
5.384506496082941e-008	5.164051e-008	-4.823624e-003
5.452818702153162e-008	5.163603e-008	-4.660914e-003
5.545797506012292e-008	5.161933e-008	-4.443460e-003
5.657776200820160e-008	5.154078e-008	-4.197945e-003
5.793208428871334e-008	5.121777e-008	-3.924034e-003
5.892254432768195e-008	5.051961e-008	-3.729288e-003
5.967585136776402e-008	4.920673e-008	-3.565787e-003
6.028886072307136e-008	4.693517e-008	-3.395201e-003
6.083243238914317e-008	4.305951e-008	-3.177985e-003
6.135242288199078e-008	3.635991e-008	-2.856166e-003
6.187116012863544e-008	2.527953e-008	-2.357579e-003
6.227658042070327e-008	1.309983e-008	-1.820179e-003
6.232650872561174e-008	1.118584e-008	-1.736201e-003
6.242636533542868e-008	6.631698e-009	-1.536226e-003
6.262607855506256e-008	-3.771134e-009	-1.076019e-003
6.283200000000000e-008	-1.577666e-008	-5.408663e-004
6.285259214449375e-008	-1.718708e-008	-4.777268e-004
6.289377643348124e-008	-2.009726e-008	-3.475851e-004
6.297614501145622e-008	-2.629236e-008	-7.052646e-005
6.309799451267210e-008	-3.650329e-008	3.907425e-004
6.334169351510385e-008	-6.136128e-008	1.534287e-003
6.379274391256422e-008	-1.214625e-007	4.317814e-003
6.427636185588538e-008	-2.036049e-007	8.026198e-003
6.446086794277437e-008	-2.418406e-007	9.493492e-003
6.460758899422602e-008	-2.770771e-007	1.029445e-002
6.480208721072781e-008	-3.288835e-007	1.048627e-002
6.500008930899207e-008	-3.866307e-007	9.882851e-003
6.513367253633415e-008	-4.291395e-007	9.113793e-003
6.529811075368410e-008	-4.856450e-007	7.930365e-003
6.544900460552226e-008	-5.417417e-007	6.710945e-003
6.570611945850242e-008	-6.446978e-007	4.521301e-003
6.585188738305105e-008	-7.070129e-007	3.393666e-003
6.597628756150516e-008	-7.635432e-007	2.663480e-003
6.612467518644408e-008	-8.342536e-007	2.067791e-003
6.626455548805719e-008	-9.039166e-007	1.686490e-003
6.640187536966599e-008	-9.753239e-007	1.428330e-003
6.654761791020625e-008	-1.054239e-006	1.228139e-003
6.669329741466328e-008	-1.136283e-006	1.075832e-003
6.684879268970069e-008	-1.227343e-006	9.487673e-004
6.701497611025660e-008	-1.328294e-006	8.393622e-004
6.716179067500708e-008	-1.420591e-006	7.594377e-004
6.730555432189089e-008	-1.514185e-006	6.939046e-004
6.750099448146745e-008	-1.646175e-006	6.189045e-004
6.773089840200368e-008	-1.808698e-006	5.465884e-004
6.812699252793730e-008	-2.103972e-006	4.471400e-004
6.852021561127047e-008	-2.417027e-006	3.699824e-004
6.904998268306693e-008	-2.874167e-006	2.916199e-004
6.956279039427948e-008	-3.362728e-006	2.351808e-004
7.009688750437311e-008	-3.941050e-006	1.920006e-004
7.061425921864198e-008	-4.606146e-006	1.604714e-004
7.115575839877323e-008	-5.491554e-006	1.350117e-004
7.169222687084703e-008	-6.753665e-006	1.150877e-004
7.224708425404153e-008	-8.922174e-006	9.849566e-005
7.274773467664185e-008	-1.230412e-005	8.621925e-005
7.327037412297704e-008	-1.755694e-005	7.567131e-005
7.393068254344542e-008	-2.552178e-005	6.463476e-005
7.455012370416017e-008	-3.330826e-005	5.612593e-005
7.530798625338358e-008	-4.276703e-005	4.763524e-005
7.602462180172051e-008	-5.155324e-005	4.110172e-005
7.690498922395157e-008	-6.212929e-005	3.463715e-005
7.777122316484483e-008	-7.229695e-005	2.957559e-005
7.893793117043801e-008	-8.561192e-005	2.432722e-005
8.034509230278194e-008	-1.010533e-004	1.966473e-005
8.232065954960447e-008	-1.215525e-004	1.509656e-005
8.419590873823546e-008	-1.395780e-004	1.215856e-005
8.611510702968872e-008	-1.564162e-004	1.002708e-005
8.788687066259331e-008	-1.705343e-004	7.541460e-006
8.975672489355572e-008	-1.835375e-004	-2.956649e-006
9.155554638426776e-008	-1.900379e-004	-5.198668e-005
9.343293349805014e-008	-1.848543e-004	-1.960349e-004
9.523491009841345e-008	-1.716395e-004	-4.273501e-004
9.593880814657813e-008	-1.673362e-004	-5.327848e-004
9.642505337307784e-008	-1.659198e-004	-6.038233e-004
9.689344067883390e-008	-1.651757e-004	-6.677933e-004
9.741192993875059e-008	-1.645556e-004	-7.349172e-004
9.766655577181973e-008	-1.643084e-004	-7.670745e-004
9.792528347615262e-008	-1.640970e-004	-8.012058e-004
9.824104257430899e-008	-1.638727e-004	-8.478605e-004
9.866051557409504e-008	-1.636189e-004	-9.221270e-004
9.920476770978057e-008	-1.633485e-004	-1.058681e-003
1.000014004805245e-007	-1.630331e-004	-1.440568e-003
1.008636541842868e-007	-1.627667e-004	-2.839176e-003
1.019218497792674e-007	-1.625140e-004	-6.815788e-003
1.029343635960307e-007	-1.623216e-004	-1.114667e-002
1.036692528624813e-007	-1.622067e-004	-1.252917e-002
1.042561902956000e-007	-1.621280e-004	-1.248800e-002
1.048321478575304e-007	-1.620585e-004	-1.232260e-002
1.051438128077178e-007	-1.620237e-004	-1.222758e-002
1.053406969040304e-007	-1.620028e-004	-1.216682e-002
1.055316593345615e-007	-1.619834e-004	-1.210803e-002
1.056399637848611e-007	-1.619726e-004	-1.207481e-002
1.057262271482764e-007	-1.619641e-004	-1.204840e-002
1.058042373826815e-007	-1.619566e-004	-1.202452e-002
1.058759358229778e-007	-1.619497e-004	-1.200258e-002
1.059387093179827e-007	-1.619438e-004	-1.198336e-002
1.060143250479392e-007	-1.619367e-004	-1.196021e-002
1.060824109583083e-007	-1.619304e-004	-1.193937e-002
1.061630878496007e-007	-1.619231e-004	-1.191468e-002
1.062450551837682e-007	-1.619157e-004	-1.188959e-002
1.063346638790193e-007	-1.619077e-004	-1.186224e-002
1.064331398015370e-007	-1.618991e-004	-1.183237e-002
1.065161229992338e-007	-1.618919e-004	-1.180731e-002
1.065571137496026e-007	-1.618883e-004	-1.179494e-002
1.066075732928032e-007	-1.618840e-004	-1.177972e-002
1.066590444544678e-007	-1.618797e-004	-1.176420e-002
1.067099564808081e-007	-1.618754e-004	-1.174884e-002
1.067829959158500e-007	-1.618693e-004	-1.172681e-002
1.068560658676303e-007	-1.618633e-004	-1.170477e-002
1.069510645348653e-007	-1.618555e-004	-1.167611e-002
1.070621615252026e-007	-1.618466e-004	-1.164260e-002
1.071946467510615e-007	-1.618362e-004	-1.160297e-002
1.073596102998671e-007	-1.618234e-004	-1.155449e-002
1.075556243078068e-007	-1.618086e-004	-1.149749e-002
1.077992871439492e-007	-1.617907e-004	-1.142675e-002
1.080956202101363e-007	-1.617697e-004	-1.134030e-002
1.084775857515308e-007	-1.617437e-004	-1.122589e-002
1.090063489483536e-007	-1.617096e-004	-1.106217e-002
1.096927257051422e-007	-1.616680e-004	-1.083591e-002
1.103457014811412e-007	-1.616307e-004	-1.059678e-002
1.110074481838330e-007	-1.615951e-004	-1.033883e-002
1.116966595403890e-007	-1.615601e-004	-1.005646e-002
1.123947274778083e-007	-1.615264e-004	-9.745882e-003
1.131082452116817e-007	-1.614936e-004	-9.413851e-003
1.136858895889989e-007	-1.614681e-004	-9.146107e-003
1.141706369969789e-007	-1.614474e-004	-8.925202e-003
1.146729610585311e-007	-1.614264e-004	-8.698344e-003
1.151719877027275e-007	-1.614061e-004	-8.476705e-003
1.158642933062468e-007	-1.613788e-004	-8.184615e-003
1.166706208220718e-007	-1.613481e-004	-7.858291e-003
1.177089649850272e-007	-1.613101e-004	-7.429072e-003
1.183259720670374e-007	-1.612887e-004	-7.160129e-003
1.187937767606780e-007	-1.612732e-004	-6.944806e-003
1.192350557467379e-007	-1.612598e-004	-6.622256e-003
1.196879082882837e-007	-1.612481e-004	-6.066967e-003
1.201647888146809e-007	-1.612391e-004	-5.368929e-003
1.206123087367511e-007	-1.612343e-004	-4.594199e-003
1.210848049054455e-007	-1.612338e-004	-3.068324e-003
1.213387881819135e-007	-1.612369e-004	-1.473702e-003
1.215445740827445e-007	-1.612431e-004	1.924620e-004
1.217721180787584e-007	-1.612540e-004	2.034717e-003
1.220735353220492e-007	-1.612741e-004	4.474929e-003
1.223786047050324e-007	-1.613016e-004	6.944460e-003
1.228219018529843e-007	-1.613531e-004	9.846291e-003
1.231185702472825e-007	-1.613974e-004	1.047684e-002
1.234208333856608e-007	-1.614552e-004	1.008515e-002
1.237057355923119e-007	-1.615224e-004	9.559056e-003
1.240654845176587e-007	-1.616275e-004	8.893065e-003
1.246739788068249e-007	-1.618422e-004	7.120157e-003
1.250800716928916e-007	-1.620151e-004	5.142465e-003
1.256640000000000e-007	-1.622990e-004	2.054215e-003
1.257223928307109e-007	-1.623315e-004	1.946502e-003
1.258391784921325e-007	-1.623980e-004	1.757732e-003
1.260727498149759e-007	-1.625378e-004	1.482636e-003
1.265398924606626e-007	-1.628402e-004	1.090014e-003
1.271924691895372e-007	-1.633088e-004	6.985688e-004
1.279678946660823e-007	-1.639447e-004	3.807226e-004
1.287667679861354e-007	-1.647485e-004	1.560157e-004
1.297039868721063e-007	-1.660698e-004	-3.089622e-005
1.305006010396878e-007	-1.678485e-004	-1.536440e-004
1.309927365268080e-007	-1.698070e-004	-2.226495e-004
1.316343354094287e-007	-1.739948e-004	-3.222458e-004
1.322404783816699e-007	-1.796005e-004	-4.418275e-004
1.327405153291512e-007	-1.852994e-004	-5.820376e-004
1.331789572698743e-007	-1.907079e-004	-7.681446e-004
1.335379013239078e-007	-1.951911e-004	-1.007175e-003
1.338493660590883e-007	-1.990647e-004	-1.337112e-003
1.341053162713284e-007	-2.022275e-004	-1.774487e-003
1.343203697291090e-007	-2.048687e-004	-2.366016e-003
1.345617925096272e-007	-2.078161e-004	-3.299641e-003
1.348132999593203e-007	-2.108684e-004	-4.407863e-003
1.350414453765622e-007	-2.136204e-004	-5.315858e-003
1.352764696465366e-007	-2.164375e-004	-5.946129e-003
1.355483394161308e-007	-2.196767e-004	-6.291520e-003
1.357556590398077e-007	-2.221314e-004	-6.368067e-003
1.360093591202710e-007	-2.251164e-004	-6.369666e-003
1.362514903919083e-007	-2.279436e-004	-6.350379e-003
1.367357529351829e-007	-2.335450e-004	-6.292673e-003
1.372138876734328e-007	-2.390138e-004	-6.227367e-003
1.377563145055761e-007	-2.451339e-004	-6.148885e-003
1.383520193400065e-007	-2.517532e-004	-6.061721e-003
1.389978101560112e-007	-2.587994e-004	-5.967712e-003
1.397390291735262e-007	-2.667007e-004	-5.861458e-003
1.406428807603469e-007	-2.760976e-004	-5.734702e-003
1.411664298312594e-007	-2.814040e-004	-5.663342e-003
1.416396047765806e-007	-2.860831e-004	-5.600912e-003
1.420877997606366e-007	-2.904191e-004	-5.544227e-003
1.425384105602188e-007	-2.946829e-004	-5.491011e-003
1.429939274484301e-007	-2.988955e-004	-5.443270e-003
1.434808211799269e-007	-3.032943e-004	-5.402623e-003
1.439419265687288e-007	-3.073612e-004	-5.380658e-003
1.444229546433846e-007	-3.115009e-004	-5.385535e-003
1.448961746020080e-007	-3.154734e-004	-5.432647e-003
1.453932176871056e-007	-3.195423e-004	-5.545078e-003
1.458971582025197e-007	-3.235640e-004	-5.736374e-003
1.464352271988306e-007	-3.277646e-004	-6.004593e-003
1.466337607381948e-007	-3.292873e-004	-6.090627e-003
1.467579360089956e-007	-3.302280e-004	-6.088358e-003
1.468189834978948e-007	-3.306877e-004	-6.019471e-003
1.468714634801595e-007	-3.310813e-004	-5.859880e-003
1.469298728153480e-007	-3.315180e-004	-5.512932e-003
1.469917293956823e-007	-3.319790e-004	-4.863633e-003
1.470599639480215e-007	-3.324856e-004	-3.667681e-003
1.471374277126031e-007	-3.330582e-004	-1.506557e-003
1.472365403836104e-007	-3.337874e-004	2.501163e-003
1.473268951381794e-007	-3.344486e-004	7.301431e-003
1.474089728941135e-007	-3.350457e-004	1.262756e-002
1.475339508888991e-007	-3.359496e-004	2.159526e-002
1.476146792897477e-007	-3.365300e-004	2.715804e-002
1.477074389884906e-007	-3.371928e-004	3.263368e-002
1.478036701105881e-007	-3.378760e-004	3.758803e-002
1.479458708518252e-007	-3.388778e-004	4.484958e-002
1.480970950310328e-007	-3.399314e-004	5.347035e-002
1.483995433894481e-007	-3.420050e-004	7.339264e-002
1.487170092463382e-007	-3.441229e-004	9.660202e-002
1.490493826632039e-007	-3.462282e-004	1.211831e-001
1.494042070973577e-007	-3.483081e-004	1.450132e-001
1.497858947940509e-007	-3.503080e-004	1.663042e-001
1.503182560689867e-007	-3.525788e-004	1.895414e-001
1.508049926549591e-007	-3.538782e-004	2.059216e-001
1.511097808943859e-007	-3.539379e-004	2.136771e-001
1.514555872882632e-007	-3.530548e-004	2.202832e-001
1.517746372441826e-007	-3.514307e-004	2.251518e-001
1.520622106448347e-007	-3.492450e-004	2.293239e-001
1.524473177469604e-007	-3.456124e-004	2.352684e-001
1.527041227095377e-007	-3.429823e-004	2.391106e-001
1.528167388486957e-007	-3.418210e-004	2.403519e-001
1.529659992972289e-007	-3.403171e-004	2.413191e-001
1.530630090615241e-007	-3.393610e-004	2.417181e-001
1.531783536624406e-007	-3.382522e-004	2.420331e-001
1.533404878551865e-007	-3.367359e-004	2.423427e-001
1.535300351368138e-007	-3.350229e-004	2.425917e-001
1.537378114076360e-007	-3.332238e-004	2.427763e-001
1.539893358441922e-007	-3.311904e-004	2.429258e-001
1.543006996604160e-007	-3.290112e-004	2.430466e-001
1.546541583574432e-007	-3.271643e-004	2.431312e-001
1.551026602627518e-007	-3.256854e-004	2.431922e-001
1.555963023538633e-007	-3.247300e-004	2.432267e-001
1.560589808421692e-007	-3.241740e-004	2.432378e-001
1.565240815525952e-007	-3.238014e-004	2.432306e-001
1.569656263337282e-007	-3.235746e-004	2.432057e-001
1.574501478430317e-007	-3.234373e-004	2.431535e-001
1.578962149797633e-007	-3.233949e-004	2.430711e-001
1.583483442496864e-007	-3.234236e-004	2.429325e-001
1.588039984631089e-007	-3.235141e-004	2.426953e-001
1.593068576722213e-007	-3.236759e-004	2.422226e-001
1.598470459575429e-007	-3.239108e-004	2.412187e-001
1.603639606848107e-007	-3.241927e-004	2.395353e-001
1.608818696096862e-007	-3.245366e-004	2.371977e-001
1.613907249371212e-007	-3.249476e-004	2.346843e-001
1.619122815301637e-007	-3.254494e-004	2.324826e-001
