time	V(out1)-V(out2)	I(V5)
0.000000000000000e+000	5.164425e-008	5.164424e-009
7.142856940843350e-011	5.164425e-008	5.164423e-009
1.428571388168670e-010	5.164424e-008	5.164422e-009
2.142857082253005e-010	5.164424e-008	5.164421e-009
2.857142776337340e-010	5.164424e-008	5.164421e-009
3.571428470421675e-010	5.164424e-008	5.164422e-009
4.285714164506010e-010	5.164425e-008	5.164423e-009
4.999999858590343e-010	5.164425e-008	5.164424e-009
9.999999717180685e-010	5.164425e-008	5.164424e-009
1.999999943436137e-009	5.164425e-008	5.164424e-009
3.999999886872274e-009	5.164425e-008	5.164424e-009
7.393045152767097e-009	5.164425e-008	5.164424e-009
1.058250258138470e-008	5.164425e-008	5.164424e-009
1.243324129919117e-008	5.164425e-008	5.164422e-009
1.355957085566118e-008	5.164425e-008	5.164424e-009
1.406275082785627e-008	5.164425e-008	5.164424e-009
1.425859414110075e-008	5.164425e-008	5.164425e-009
1.438680584954321e-008	5.164425e-008	5.164425e-009
1.446030324541406e-008	5.164425e-008	5.164425e-009
1.452560165606418e-008	5.164425e-008	5.164425e-009
1.458818706715698e-008	5.164425e-008	5.164425e-009
1.466933169201388e-008	5.164425e-008	5.164426e-009
1.478892285154016e-008	5.164425e-008	5.164426e-009
1.495340606964002e-008	5.164425e-008	5.164425e-009
1.501317045435346e-008	5.164425e-008	5.164425e-009
1.505535740060516e-008	5.164425e-008	5.164423e-009
1.506126251361902e-008	5.164425e-008	5.164422e-009
1.511356494317044e-008	5.164425e-008	5.164418e-009
1.516586737272184e-008	5.164424e-008	5.164415e-009
1.521816980227325e-008	5.164424e-008	5.164414e-009
1.527047223182466e-008	5.164424e-008	5.164415e-009
1.532277466137608e-008	5.164424e-008	5.164416e-009
1.537507709092748e-008	5.164425e-008	5.164419e-009
1.542737952047889e-008	5.164425e-008	5.164424e-009
1.580530675336651e-008	5.164424e-008	5.164419e-009
1.588797833556067e-008	5.164425e-008	5.164432e-009
1.598246014378257e-008	5.164425e-008	5.164429e-009
1.617142376022638e-008	5.164425e-008	5.164425e-009
1.654935099311399e-008	5.164425e-008	5.164424e-009
1.730520545888921e-008	5.164425e-008	5.164425e-009
1.815769787985442e-008	5.164425e-008	5.164425e-009
1.879210506242903e-008	5.164425e-008	5.164343e-009
1.948610508940026e-008	5.164425e-008	5.161958e-009
2.006471290986088e-008	5.164425e-008	5.152710e-009
2.069202837009505e-008	5.164425e-008	5.128418e-009
2.135606243715848e-008	5.164425e-008	5.080400e-009
2.195856411398390e-008	5.164425e-008	5.005405e-009
2.246139804141336e-008	5.164425e-008	4.900473e-009
2.295685432749061e-008	5.164425e-008	4.730663e-009
2.345330828066789e-008	5.164425e-008	4.444111e-009
2.402800138939571e-008	5.164425e-008	3.819379e-009
2.480117838356039e-008	5.164425e-008	1.968708e-009
2.571183950516565e-008	5.164425e-008	-3.163279e-009
2.649699869168755e-008	5.164425e-008	-1.286125e-008
2.701385146313336e-008	5.164425e-008	-2.550472e-008
2.742780149851418e-008	5.164425e-008	-4.353620e-008
2.784015899035685e-008	5.164425e-008	-7.416271e-008
2.831386167586733e-008	5.164425e-008	-1.332289e-007
2.875558957238105e-008	5.164425e-008	-2.275188e-007
2.921746174733876e-008	5.164425e-008	-3.962743e-007
2.966912650813158e-008	5.164425e-008	-6.780270e-007
3.013047216124955e-008	5.164425e-008	-1.167400e-006
3.059239973901684e-008	5.164425e-008	-1.996713e-006
3.106506825693608e-008	5.164425e-008	-3.424685e-006
3.154717316184370e-008	5.164425e-008	-5.859539e-006
3.204726147845820e-008	5.164425e-008	-1.004641e-005
3.257079534092539e-008	5.164425e-008	-1.723388e-005
3.313296211332399e-008	5.164425e-008	-2.968905e-005
3.375622241378345e-008	5.164425e-008	-5.140762e-005
3.449448079128419e-008	5.164425e-008	-8.902948e-005
3.525660979938133e-008	5.164425e-008	-1.396836e-004
3.595434302284846e-008	5.164425e-008	-1.929346e-004
3.671594689442363e-008	5.164425e-008	-2.521112e-004
3.760987129747489e-008	5.164425e-008	-3.165161e-004
3.862813194806330e-008	5.164425e-008	-3.835353e-004
3.917371434623415e-008	5.164425e-008	-4.208895e-004
3.974621483402875e-008	5.164425e-008	-4.702156e-004
4.036566286871889e-008	5.164425e-008	-5.462542e-004
4.092785241944663e-008	5.164425e-008	-6.525389e-004
4.141846599973787e-008	5.164425e-008	-8.004167e-004
4.180961777984028e-008	5.164425e-008	-9.918592e-004
4.214984407520243e-008	5.164425e-008	-1.262037e-003
4.243560602296927e-008	5.164425e-008	-1.627462e-003
4.266565589648691e-008	5.164425e-008	-2.114572e-003
4.289894348297539e-008	5.164425e-008	-2.877282e-003
4.313130621323296e-008	5.164425e-008	-3.855729e-003
4.333016160206643e-008	5.164425e-008	-4.727076e-003
4.356324230020964e-008	5.164425e-008	-5.571939e-003
4.380555017259774e-008	5.164425e-008	-6.102744e-003
4.409876051675517e-008	5.164425e-008	-6.356506e-003
4.431230501097138e-008	5.164425e-008	-6.393306e-003
4.456389183160284e-008	5.164425e-008	-6.377460e-003
4.486603868248440e-008	5.164425e-008	-6.343439e-003
4.536221007194770e-008	5.164425e-008	-6.274482e-003
4.590511635026246e-008	5.164425e-008	-6.192661e-003
4.658035053188960e-008	5.164425e-008	-6.088440e-003
4.722084259181373e-008	5.164425e-008	-5.990340e-003
4.800882533123895e-008	5.164425e-008	-5.872193e-003
4.893100457121451e-008	5.164424e-008	-5.737724e-003
4.953548734895826e-008	5.164424e-008	-5.652617e-003
5.003440200431249e-008	5.164422e-008	-5.585386e-003
5.050060835320783e-008	5.164418e-008	-5.526078e-003
5.097281878028802e-008	5.164410e-008	-5.471240e-003
5.144542692938176e-008	5.164398e-008	-5.425082e-003
5.195877737042573e-008	5.164375e-008	-5.390503e-003
5.243594199556025e-008	5.164340e-008	-5.382585e-003
5.293579951973647e-008	5.164281e-008	-5.414115e-003
5.342391947568414e-008	5.164184e-008	-5.501884e-003
5.393971380915971e-008	5.164006e-008	-5.671498e-003
5.446486310521799e-008	5.163729e-008	-5.913291e-003
5.463909960627943e-008	5.163601e-008	-6.006641e-003
5.475938437931347e-008	5.163492e-008	-6.068226e-003
5.483630608672093e-008	5.163414e-008	-6.092251e-003
5.490100776648142e-008	5.163344e-008	-6.082992e-003
5.495667641078629e-008	5.163281e-008	-6.025969e-003
5.501289490702227e-008	5.163214e-008	-5.878915e-003
5.507373909804466e-008	5.163138e-008	-5.555796e-003
5.513800406950057e-008	5.163053e-008	-4.933352e-003
5.520648518117516e-008	5.162957e-008	-3.803153e-003
5.528390284942162e-008	5.162835e-008	-1.746204e-003
5.537978366795982e-008	5.162668e-008	1.938126e-003
5.545663353817651e-008	5.162519e-008	5.825196e-003
5.553457080610741e-008	5.162351e-008	1.067011e-002
5.564576937226715e-008	5.162089e-008	1.848466e-002
5.572827322375300e-008	5.161877e-008	2.440533e-002
5.580903779225549e-008	5.161653e-008	2.963834e-002
5.589304719463219e-008	5.161400e-008	3.423427e-002
5.601638657203523e-008	5.160985e-008	4.042722e-002
5.614842323276128e-008	5.160461e-008	4.740528e-002
5.636397587252911e-008	5.159388e-008	6.016011e-002
5.666012786462028e-008	5.157444e-008	7.942871e-002
5.696158878301766e-008	5.154671e-008	9.961528e-002
5.730883307862338e-008	5.149981e-008	1.218530e-001
5.768210421980221e-008	5.141914e-008	1.432131e-001
5.817838649866277e-008	5.123505e-008	1.671081e-001
5.871016242070800e-008	5.089015e-008	1.879200e-001
5.917456631427801e-008	5.036805e-008	2.024576e-001
5.959902190525809e-008	4.955202e-008	2.128308e-001
6.005661663886404e-008	4.811860e-008	2.218165e-001
6.043777499892684e-008	4.619874e-008	2.288756e-001
6.082435093079575e-008	4.338900e-008	2.362877e-001
6.098542605683304e-008	4.186762e-008	2.391065e-001
6.108494607759118e-008	4.071235e-008	2.403299e-001
6.123302433273650e-008	3.874070e-008	2.414490e-001
6.131078245343099e-008	3.757056e-008	2.418332e-001
6.143102533140262e-008	3.552987e-008	2.422296e-001
6.155791760822140e-008	3.307257e-008	2.425346e-001
6.172658071532024e-008	2.922543e-008	2.428225e-001
6.191079172295771e-008	2.413464e-008	2.430481e-001
6.215004034055400e-008	1.589322e-008	2.432574e-001
6.241409604248222e-008	4.113027e-009	2.434243e-001
6.274547709047471e-008	-1.559329e-008	2.435759e-001
6.310798600919800e-008	-4.551411e-008	2.436967e-001
6.357730591616694e-008	-1.001527e-007	2.438107e-001
6.405649605956540e-008	-1.777484e-007	2.438966e-001
6.452386409632529e-008	-2.799476e-007	2.439574e-001
6.497293967780024e-008	-4.072403e-007	2.439994e-001
6.543048156942917e-008	-5.688475e-007	2.440300e-001
6.589687438226215e-008	-7.670795e-007	2.440523e-001
6.636182852104956e-008	-9.983313e-007	2.440682e-001
6.684011445898181e-008	-1.269649e-006	2.440796e-001
6.730455183659737e-008	-1.564196e-006	2.440871e-001
6.780259807185440e-008	-1.911473e-006	2.440921e-001
6.826925837514763e-008	-2.265377e-006	2.440946e-001
6.873614812095692e-008	-2.650033e-006	2.440953e-001
6.923436809974286e-008	-3.099527e-006	2.440946e-001
6.976064632062901e-008	-3.630087e-006	2.440924e-001
7.027766724603901e-008	-4.234549e-006	2.440891e-001
7.082937368685779e-008	-5.040831e-006	2.440844e-001
7.147355006304031e-008	-6.371521e-006	2.440780e-001
7.208964351686952e-008	-8.445609e-006	2.440709e-001
7.257185209157034e-008	-1.137228e-005	2.440648e-001
7.314050528055189e-008	-1.676672e-005	2.440571e-001
7.379352555006116e-008	-2.446859e-005	2.440476e-001
7.447848132656341e-008	-3.305785e-005	2.440372e-001
7.525130336371079e-008	-4.265609e-005	2.440247e-001
7.679694743800553e-008	-6.124103e-005	2.439983e-001
7.916799778686488e-008	-8.858840e-005	2.439558e-001
8.139809124248024e-008	-1.134469e-004	2.439140e-001
8.353069799572881e-008	-1.371849e-004	2.438731e-001
8.428691909216111e-008	-1.452843e-004	2.438584e-001
8.475217301958847e-008	-1.471773e-004	2.438492e-001
8.508291249162836e-008	-1.405694e-004	2.438427e-001
8.546751041353111e-008	-1.174807e-004	2.438352e-001
8.589549725952312e-008	-6.755831e-005	2.438267e-001
8.663222578272794e-008	7.461372e-005	2.438120e-001
8.757809766301260e-008	3.399863e-004	2.437929e-001
8.864429609099118e-008	7.276746e-004	2.437701e-001
8.983718118326309e-008	1.236443e-003	2.437389e-001
9.135512830055499e-008	1.942925e-003	2.436642e-001
9.347893061789967e-008	2.967293e-003	2.434541e-001
9.548089310554248e-008	3.940529e-003	2.431597e-001
9.725750850372397e-008	4.804656e-003	2.428546e-001
9.931959902008226e-008	5.807530e-003	2.419860e-001
1.013327796108624e-007	6.786362e-003	2.383546e-001
1.032958418568946e-007	7.740496e-003	2.334764e-001
1.056722125795575e-007	8.895071e-003	2.313833e-001
1.078628627777345e-007	9.958922e-003	2.319100e-001
1.110696757938967e-007	1.151544e-002	2.337411e-001
1.140789190543290e-007	1.297528e-002	3.111915e-001
1.163664445394307e-007	1.408448e-002	4.953602e-001
1.172564351020767e-007	1.451588e-002	5.821128e-001
1.181337400173355e-007	1.494101e-002	6.422966e-001
1.192941424401118e-007	1.550322e-002	6.905575e-001
1.203819989124655e-007	1.603014e-002	7.150584e-001
1.214179055096622e-007	1.653175e-002	7.248808e-001
1.226689028337786e-007	1.713728e-002	7.279165e-001
1.238726733646611e-007	1.771964e-002	7.282603e-001
1.253924079757209e-007	1.845435e-002	7.283547e-001
1.270003458579551e-007	1.923105e-002	7.283958e-001
1.288765661795926e-007	2.013629e-002	7.284089e-001
1.301601484656584e-007	2.075380e-002	7.283636e-001
1.315236785030854e-007	2.140598e-002	7.282787e-001
1.325318044940512e-007	2.188454e-002	7.282121e-001
1.331753140123735e-007	2.218815e-002	7.281674e-001
1.338396282708518e-007	2.250085e-002	7.281199e-001
1.345558521872120e-007	2.283798e-002	7.280684e-001
1.352720814854608e-007	2.317521e-002	7.280161e-001
1.360518233259541e-007	2.354245e-002	7.279582e-001
1.368681603006802e-007	2.392705e-002	7.278969e-001
1.377448849943895e-007	2.434023e-002	7.278304e-001
1.386944962724417e-007	2.478786e-002	7.277577e-001
1.397194924209274e-007	2.527111e-002	7.276790e-001
1.397370858974891e-007	2.527940e-002	7.276776e-001
1.397722728506125e-007	2.529599e-002	7.276750e-001
1.398079346844239e-007	2.531281e-002	7.276722e-001
1.398493770417259e-007	2.533235e-002	7.276690e-001
1.399322617563298e-007	2.537144e-002	7.276627e-001
1.400980311855377e-007	2.544961e-002	7.276499e-001
1.402078317136656e-007	2.550139e-002	7.276415e-001
1.403256158798504e-007	2.555693e-002	7.276325e-001
1.403971047917606e-007	2.559065e-002	7.276270e-001
1.404655232702975e-007	2.562292e-002	7.276217e-001
1.405261459558583e-007	2.565151e-002	7.276171e-001
1.405860594034720e-007	2.567977e-002	7.276124e-001
1.406604776967521e-007	2.571488e-002	7.276065e-001
1.407294070001455e-007	2.574741e-002	7.276012e-001
1.408217278132625e-007	2.579099e-002	7.275940e-001
1.409505087254130e-007	2.585180e-002	7.275839e-001
1.411334456135564e-007	2.593823e-002	7.275696e-001
1.411895708160721e-007	2.596475e-002	7.275652e-001
1.411937022289455e-007	2.596671e-002	7.275649e-001
1.412019650546924e-007	2.597061e-002	7.275642e-001
1.412184907061861e-007	2.597843e-002	7.275629e-001
1.412515420091736e-007	2.599405e-002	7.275603e-001
1.412960685589422e-007	2.601511e-002	7.275569e-001
1.413851216584793e-007	2.605723e-002	7.275499e-001
1.415632278575535e-007	2.614153e-002	7.275360e-001
1.419194402557018e-007	2.631031e-002	7.275081e-001
1.426318650519985e-007	2.664848e-002	7.274524e-001
1.434207665356841e-007	2.702355e-002	7.273907e-001
1.434338576360208e-007	2.702979e-002	7.273897e-001
1.434600398366941e-007	2.704226e-002	7.273877e-001
1.435124042380408e-007	2.706730e-002	7.273836e-001
1.436171330407341e-007	2.711820e-002	7.273753e-001
1.438265906461207e-007	2.722198e-002	7.273588e-001
1.438331361962890e-007	2.722528e-002	7.273583e-001
1.438462272966257e-007	2.723199e-002	7.273572e-001
1.438724094972990e-007	2.724547e-002	7.273552e-001
1.439247738986457e-007	2.727272e-002	7.273510e-001
1.440295027013390e-007	2.732788e-002	7.273428e-001
1.440556849020123e-007	2.734185e-002	7.273407e-001
1.441080493033590e-007	2.737022e-002	7.273366e-001
1.442127781060523e-007	2.742810e-002	7.273283e-001
1.444222357114389e-007	2.754858e-002	7.273117e-001
1.448411509222122e-007	2.780296e-002	7.272787e-001
1.452294775084715e-007	2.805572e-002	7.272480e-001
1.457384054573959e-007	2.841337e-002	7.272078e-001
1.462669421388025e-007	2.881350e-002	7.271658e-001
1.469088881513847e-007	2.933453e-002	7.271146e-001
1.475671110339069e-007	2.989939e-002	7.270615e-001
1.481534855613686e-007	3.042316e-002	7.270133e-001
1.486454299565608e-007	3.087443e-002	7.269714e-001
1.491429019150535e-007	3.133902e-002	7.269264e-001
1.496412941041958e-007	3.181035e-002	7.268766e-001
1.502424524003800e-007	3.238395e-002	7.268078e-001
1.507741283790933e-007	3.289422e-002	7.267394e-001
1.512034426628673e-007	3.330761e-002	7.266784e-001
1.516336581279153e-007	3.372237e-002	7.266141e-001
1.521042849232762e-007	3.417626e-002	7.265360e-001
1.525495974609648e-007	3.460580e-002	7.264479e-001
1.530054658403586e-007	3.504554e-002	7.263494e-001
1.534524446147632e-007	3.547672e-002	7.262498e-001
1.539034167033772e-007	3.591174e-002	7.261459e-001
1.543534052617358e-007	3.634579e-002	7.260408e-001
1.548089448296123e-007	3.678517e-002	7.259348e-001
1.552696844229393e-007	3.722954e-002	7.258279e-001
1.557408447646480e-007	3.768394e-002	7.257195e-001
1.562254804349696e-007	3.815131e-002	7.256055e-001
1.567311507404168e-007	3.863894e-002	7.254785e-001
1.572681073318897e-007	3.915671e-002	7.253371e-001
1.578575526080633e-007	3.972505e-002	7.251390e-001
1.585473997048171e-007	4.039013e-002	7.247053e-001
1.593013326844260e-007	4.111693e-002	7.238197e-001
1.598556212710896e-007	4.165120e-002	7.228188e-001
1.599280634820022e-007	4.172103e-002	7.226303e-001
1.600729479038274e-007	4.186067e-002	7.221820e-001
1.602389001335870e-007	4.202060e-002	7.216685e-001
1.602803881910269e-007	4.206059e-002	7.215399e-001
1.602907602053869e-007	4.207058e-002	7.215077e-001
1.603115042341068e-007	4.209057e-002	7.214429e-001
1.603529922915467e-007	4.213056e-002	7.213131e-001
1.604137555103508e-007	4.218912e-002	7.211226e-001
1.604964706849416e-007	4.226883e-002	7.208633e-001
1.605295567547779e-007	4.230071e-002	7.207596e-001
1.606453579992049e-007	4.241231e-002	7.203966e-001
1.607611592436319e-007	4.252390e-002	7.200338e-001
1.608852320055180e-007	4.264346e-002	7.196451e-001
1.609431326277315e-007	4.269925e-002	7.194638e-001
1.609596756626496e-007	4.271519e-002	7.194082e-001
1.610010332499450e-007	4.275504e-002	7.192453e-001
1.610175762848632e-007	4.277098e-002	7.191659e-001
1.610754769070767e-007	4.282678e-002	7.188879e-001
1.611168344943720e-007	4.286663e-002	7.186893e-001
1.611333775292902e-007	4.288257e-002	7.186099e-001
1.611747351165855e-007	4.292242e-002	7.184114e-001
1.611912781515037e-007	4.293836e-002	7.183320e-001
1.612326357387991e-007	4.297821e-002	7.181335e-001
1.612491787737172e-007	4.299415e-002	7.180541e-001
1.612822648435535e-007	4.302603e-002	7.178953e-001
1.612905363610126e-007	4.303400e-002	7.178556e-001
1.613070793959307e-007	4.304994e-002	7.177762e-001
1.613401654657670e-007	4.308182e-002	7.176175e-001
1.613484369832261e-007	4.308979e-002	7.175778e-001
1.613649800181442e-007	4.310573e-002	7.174984e-001
1.614063376054396e-007	4.314557e-002	7.173000e-001
1.614228806403577e-007	4.316151e-002	7.172207e-001
1.614642382276531e-007	4.320136e-002	7.170222e-001
1.614807812625712e-007	4.321730e-002	7.169429e-001
1.615221388498666e-007	4.325715e-002	7.167445e-001
1.615386818847847e-007	4.327309e-002	7.166651e-001
1.615800394720801e-007	4.331294e-002	7.164668e-001
1.615965825069983e-007	4.332888e-002	7.163875e-001
1.616379400942936e-007	4.336872e-002	7.161891e-001
1.616544831292118e-007	4.338466e-002	7.161099e-001
1.616958407165071e-007	4.342451e-002	7.159116e-001
1.617123837514253e-007	4.344044e-002	7.158322e-001
1.617537413387206e-007	4.348029e-002	7.156340e-001
1.617702843736388e-007	4.349623e-002	7.155547e-001
1.618116419609341e-007	4.353607e-002	7.153565e-001
1.618695425831477e-007	4.359185e-002	7.150790e-001
1.618984928942544e-007	4.361974e-002	7.149402e-001
1.619770723101156e-007	4.369545e-002	7.145638e-001
1.619853438275747e-007	4.370342e-002	7.145324e-001
1.620018868624929e-007	4.371936e-002	7.144952e-001
1.620060226212224e-007	4.372334e-002	7.144886e-001
1.620142941386815e-007	4.373131e-002	7.144764e-001
1.620834203917324e-007	4.379790e-002	7.143743e-001
1.621525466447832e-007	4.386450e-002	7.142722e-001
1.622216728978341e-007	4.393109e-002	7.141703e-001
1.622907991508849e-007	4.399768e-002	7.140685e-001
1.623599254039358e-007	4.406427e-002	7.139667e-001
1.624290516569866e-007	4.413086e-002	7.138650e-001
1.624981779100375e-007	4.419745e-002	7.137635e-001
1.626222506719236e-007	4.431696e-002	7.135838e-001
1.626429294655713e-007	4.433688e-002	7.135729e-001
1.626647899045703e-007	4.435794e-002	7.135788e-001
1.626866503435693e-007	4.437900e-002	7.135848e-001
1.627085107825683e-007	4.440005e-002	7.135907e-001
1.627303712215673e-007	4.442111e-002	7.135967e-001
1.627522316605663e-007	4.444217e-002	7.136027e-001
1.627740920995652e-007	4.446323e-002	7.136087e-001
1.627959525385642e-007	4.448428e-002	7.136148e-001
1.628124955734824e-007	4.450021e-002	7.136192e-001
1.628455816433187e-007	4.453209e-002	7.136276e-001
1.629056949045255e-007	4.458998e-002	7.136415e-001
1.629640120787856e-007	4.464616e-002	7.136542e-001
1.630316995050949e-007	4.471135e-002	7.136688e-001
1.631202699851267e-007	4.479666e-002	7.136878e-001
1.632374211634475e-007	4.490949e-002	7.137126e-001
1.634122519584913e-007	4.507787e-002	7.137493e-001
1.636830289119871e-007	4.533865e-002	7.138054e-001
1.640819342611796e-007	4.572279e-002	7.138867e-001
1.644706701637560e-007	4.609710e-002	7.139645e-001
1.648877772845791e-007	4.649870e-002	7.140462e-001
1.653381968396415e-007	4.693233e-002	7.141317e-001
1.659715797924327e-007	4.754203e-002	7.142462e-001
1.665902138740920e-007	4.813746e-002	7.143491e-001
1.672361540604337e-007	4.875909e-002	7.144420e-001
1.678297286179221e-007	4.933024e-002	7.145039e-001
1.684886201316702e-007	4.996416e-002	7.145295e-001
1.690011670518831e-007	5.045722e-002	7.144914e-001
